frame_no,status,type,slave,func,start_reg,count,byte_count,crc_ok,start_sample,end_sample,start_us,end_us,duration_us,gap_from_previous_us,raw_hex,summary,decoded,error
1,ok,request,0x01,0x03,0x1230,16,,true,46732209,46895402,233661.045,234477.010,815.965,,01 03 12 30 00 10 41 71,JKBMS Modbus req slave=0x01 func=0x03 start=0x1230 count=16 crc=OK,read holding registers start=0x1230 count=16 poll-block,
2,ok,response,0x01,0x03,0x1230,16,32,true,47824667,48466057,239123.335,242330.285,3206.950,4646.325,01 03 20 00 00 00 00 00 00 00 00 00 00 00 00 00 00 00 00 00 00 FF FF 0D F8 00 02 00 0A 00 45 00 42 00 45 E2 83,JKBMS Modbus rsp slave=0x01 func=0x03 regs=0x1230..0x123F bytes=32 crc=OK,response regs 0x1230..0x123F: cells stride2 count=2 C30=3.576V C31=2.560V min=2.560V#31 max=3.576V#30,
3,ok,request,0x01,0x03,0x1240,32,,true,97745959,97909152,488729.795,489545.760,815.965,246399.510,01 03 12 40 00 20 40 BE,JKBMS Modbus req slave=0x01 func=0x03 start=0x1240 count=32 crc=OK,read holding registers start=0x1240 count=32 poll-block,
4,ok,response,0x01,0x03,0x1240,32,64,true,99026222,100222306,495131.110,501111.530,5980.420,5585.350,01 03 40 00 00 FF FF 0D F8 00 02 00 0A 00 45 00 42 00 45 00 42 00 4A 00 47 00 50 00 4C 00 47 00 43 00 47 00 4C 00 56 00 5A 00 7D 00 66 00 00 00 00 00 00 00 00 00 00 00 00 00 00 00 00 00 00 00 00 00 00 EF 27,JKBMS Modbus rsp slave=0x01 func=0x03 regs=0x1240..0x125F bytes=64 crc=OK,"response regs 0x1240..0x125F: cell_avg=2.560V, cell_diff=66mV, cell_idx raw=0x0042",
5,ok,request,0x01,0x03,0x1244,6,,true,149526895,149690088,747634.475,748450.440,815.965,246522.945,01 03 12 44 00 06 80 A5,JKBMS Modbus req slave=0x01 func=0x03 start=0x1244 count=6 crc=OK,read holding registers start=0x1244 count=6 poll-block,
6,ok,response,0x01,0x03,0x1244,6,12,true,150629931,150924638,753149.655,754623.190,1473.535,4699.215,01 03 0C 0D F8 00 02 00 03 00 45 00 42 00 45 D1 88,JKBMS Modbus rsp slave=0x01 func=0x03 regs=0x1244..0x1249 bytes=12 crc=OK,"response regs 0x1244..0x1249: cell_avg=3.576V, cell_diff=3mV, cell_idx raw=0x0042",
7,ok,request,0x01,0x03,0x128A,40,,true,200146940,200310133,1000734.700,1001550.665,815.965,246111.510,01 03 12 8A 00 28 61 46,JKBMS Modbus req slave=0x01 func=0x03 start=0x128A count=40 crc=OK,read holding registers start=0x128A count=40 poll-block,
8,ok,response,0x01,0x03,0x128A,40,80,true,201250793,202724222,1006253.965,1013621.110,7367.145,4703.300,01 03 50 01 25 00 00 00 00 00 00 DF 7D 00 00 00 00 00 00 00 00 01 32 01 2F 00 08 00 00 00 00 00 63 00 00 9A 34 00 00 9C 40 00 00 00 00 00 00 23 32 64 00 00 00 00 0E CB 04 01 01 00 00 00 00 00 00 00 00 00 00 00 00 00 00 FF 00 01 00 00 00 03 BD 00 00 B8 88,JKBMS Modbus rsp slave=0x01 func=0x03 regs=0x128A..0x12B1 bytes=80 crc=OK,"response regs 0x128A..0x12B1: pack_i=+0.099A, MOS=29.3C, alarm_candidate=0x23326400, full=65.28Ah, cycles=957",
9,ok,request,0x01,0x03,0x12B8,2,,true,251934117,252097309,1259670.585,1260486.545,815.960,246049.475,01 03 12 B8 00 02 41 56,JKBMS Modbus req slave=0x01 func=0x03 start=0x12B8 count=2 crc=OK,read holding registers start=0x12B8 count=2 poll-block,
10,ok,response,0x01,0x03,0x12B8,2,4,true,253034777,253190813,1265173.885,1265954.065,780.180,4687.340,01 03 04 64 00 00 00 E5 03,JKBMS Modbus rsp slave=0x01 func=0x03 regs=0x12B8..0x12B9 bytes=4 crc=OK,"response regs 0x12B8..0x12B9: SOC=100%, SOH=100% precharge=0x00",
11,ok,request,0x01,0x03,0x1200,16,,true,302340673,302503865,1511703.365,1512519.325,815.960,245749.300,01 03 12 00 00 10 41 7E,JKBMS Modbus req slave=0x01 func=0x03 start=0x1200 count=16 crc=OK,read holding registers start=0x1200 count=16 poll-block,
12,ok,response,0x01,0x03,0x1200,16,32,true,303445899,304087287,1517229.495,1520436.435,3206.940,4710.170,01 03 20 0D F9 0D F8 0D F8 0D F8 0D F9 0D F8 0D F8 0D F8 0D F8 0D F8 0D F7 0D F8 0D F8 0D F8 0D F8 0D F8 16 EC,JKBMS Modbus rsp slave=0x01 func=0x03 regs=0x1200..0x120F bytes=32 crc=OK,response regs 0x1200..0x120F: cells compact count=16 C01=3.577V C02=3.576V C03=3.576V C04=3.576V C05=3.577V C06=3.576V C07=3.576V C08=3.576V C09=3.576V C10=3.576V C11=3.575V C12=3.576V C13=3.576V C14=3.576V C15=3.576V C16=3.576V min=3.575V#11 max=3.577V#1,
13,ok,request,0x01,0x03,0x1210,16,,true,353344232,353507425,1766721.160,1767537.125,815.965,246284.725,01 03 12 10 00 10 40 BB,JKBMS Modbus req slave=0x01 func=0x03 start=0x1210 count=16 crc=OK,read holding registers start=0x1210 count=16 poll-block,
14,ok,response,0x01,0x03,0x1210,16,32,true,354439445,355080836,1772197.225,1775404.180,3206.955,4660.100,01 03 20 0D F8 0D F8 0D F7 0D F8 0D F8 0D F8 0D F8 0D F8 00 00 00 00 00 00 00 00 00 00 00 00 00 00 00 00 BD 42,JKBMS Modbus rsp slave=0x01 func=0x03 regs=0x1210..0x121F bytes=32 crc=OK,response regs 0x1210..0x121F: cells compact count=8 C17=3.576V C18=3.576V C19=3.575V C20=3.576V C21=3.576V C22=3.576V C23=3.576V C24=3.576V min=3.575V#19 max=3.576V#17,
15,ok,request,0x01,0x03,0x1220,16,,true,404344398,404507591,2021721.990,2022537.955,815.965,246317.810,01 03 12 20 00 10 40 B4,JKBMS Modbus req slave=0x01 func=0x03 start=0x1220 count=16 crc=OK,read holding registers start=0x1220 count=16 poll-block,
16,ok,response,0x01,0x03,0x1220,16,32,true,405441658,406083049,2027208.290,2030415.245,3206.955,4670.335,01 03 20 00 00 00 00 00 00 00 00 00 00 00 00 00 00 00 00 00 00 00 00 00 00 00 00 00 00 00 00 00 00 00 00 92 7A,JKBMS Modbus rsp slave=0x01 func=0x03 regs=0x1220..0x122F bytes=32 crc=OK,response regs 0x1220..0x122F: regs 0x1220..0x122F,
17,ok,request,0x01,0x03,0x1230,16,,true,455352746,455515940,2276763.730,2277579.700,815.970,246348.485,01 03 12 30 00 10 41 71,JKBMS Modbus req slave=0x01 func=0x03 start=0x1230 count=16 crc=OK,read holding registers start=0x1230 count=16 poll-block,
18,ok,response,0x01,0x03,0x1230,16,32,true,456457740,457099129,2282288.700,2285495.645,3206.945,4709.000,01 03 20 00 00 00 00 00 00 00 00 00 00 00 00 00 00 00 00 00 00 FF FF 0D F8 00 02 00 03 00 45 00 42 00 45 7B 83,JKBMS Modbus rsp slave=0x01 func=0x03 regs=0x1230..0x123F bytes=32 crc=OK,response regs 0x1230..0x123F: cells stride2 count=1 C30=3.576V min=3.576V#30 max=3.576V#30,
19,ok,request,0x01,0x03,0x1240,32,,true,506340337,506503530,2531701.685,2532517.650,815.965,246206.040,01 03 12 40 00 20 40 BE,JKBMS Modbus req slave=0x01 func=0x03 start=0x1240 count=32 crc=OK,read holding registers start=0x1240 count=32 poll-block,
20,ok,response,0x01,0x03,0x1240,32,64,true,507446086,508642169,2537230.430,2543210.845,5980.415,4712.780,01 03 40 00 00 FF FF 0D F8 00 02 00 03 00 45 00 42 00 45 00 42 00 4A 00 47 00 50 00 4C 00 47 00 43 00 47 00 4C 00 56 00 5A 00 7D 00 66 00 00 00 00 00 00 00 00 00 00 00 00 00 00 00 00 00 00 00 00 00 00 10 41,JKBMS Modbus rsp slave=0x01 func=0x03 regs=0x1240..0x125F bytes=64 crc=OK,"response regs 0x1240..0x125F: cell_avg=raw0x0003, cell_diff=66mV, cell_idx raw=0x0042",
21,ok,request,0x01,0x03,0x1244,6,,true,557753037,557916231,2788765.185,2789581.155,815.970,245554.340,01 03 12 44 00 06 80 A5,JKBMS Modbus req slave=0x01 func=0x03 start=0x1244 count=6 crc=OK,read holding registers start=0x1244 count=6 poll-block,
22,ok,response,0x01,0x03,0x1244,6,12,true,558867787,559162494,2794338.935,2795812.470,1473.535,4757.780,01 03 0C 0D F8 00 02 00 03 00 45 00 42 00 45 D1 88,JKBMS Modbus rsp slave=0x01 func=0x03 regs=0x1244..0x1249 bytes=12 crc=OK,"response regs 0x1244..0x1249: cell_avg=3.576V, cell_diff=3mV, cell_idx raw=0x0042",
23,ok,request,0x01,0x03,0x128A,40,,true,608343522,608506715,3041717.610,3042533.575,815.965,245905.140,01 03 12 8A 00 28 61 46,JKBMS Modbus req slave=0x01 func=0x03 start=0x128A count=40 crc=OK,read holding registers start=0x128A count=40 poll-block,
24,ok,response,0x01,0x03,0x128A,40,80,true,609450515,610923943,3047252.575,3054619.715,7367.140,4719.000,01 03 50 01 25 00 00 00 00 00 00 DF 81 00 00 00 00 00 00 00 00 01 32 01 2F 00 08 00 00 00 00 00 63 00 00 9A 34 00 00 9C 40 00 00 00 00 00 00 23 32 64 00 00 00 00 0E CB 06 01 01 00 00 00 00 00 00 00 00 00 00 00 00 00 00 FF 00 01 00 00 00 03 BD 00 00 87 DF,JKBMS Modbus rsp slave=0x01 func=0x03 regs=0x128A..0x12B1 bytes=80 crc=OK,"response regs 0x128A..0x12B1: pack_i=+0.099A, MOS=29.3C, alarm_candidate=0x23326400, full=65.28Ah, cycles=957",
25,ok,request,0x01,0x03,0x12B8,2,,true,660144562,660307755,3300722.810,3301538.775,815.965,246103.095,01 03 12 B8 00 02 41 56,JKBMS Modbus req slave=0x01 func=0x03 start=0x12B8 count=2 crc=OK,read holding registers start=0x12B8 count=2 poll-block,
26,ok,response,0x01,0x03,0x12B8,2,4,true,661260499,661416533,3306302.495,3307082.665,780.170,4763.720,01 03 04 64 00 00 00 E5 03,JKBMS Modbus rsp slave=0x01 func=0x03 regs=0x12B8..0x12B9 bytes=4 crc=OK,"response regs 0x12B8..0x12B9: SOC=100%, SOH=100% precharge=0x00",
27,ok,request,0x01,0x03,0x1200,16,,true,710563123,710726316,3552815.615,3553631.580,815.965,245732.950,01 03 12 00 00 10 41 7E,JKBMS Modbus req slave=0x01 func=0x03 start=0x1200 count=16 crc=OK,read holding registers start=0x1200 count=16 poll-block,
28,ok,response,0x01,0x03,0x1200,16,32,true,711656020,712297408,3558280.100,3561487.040,3206.940,4648.520,01 03 20 0D F9 0D F8 0D F8 0D F8 0D F8 0D F8 0D F8 0D F8 0D F8 0D F8 0D F8 0D F8 0D F8 0D F8 0D F8 0D F8 EB 64,JKBMS Modbus rsp slave=0x01 func=0x03 regs=0x1200..0x120F bytes=32 crc=OK,response regs 0x1200..0x120F: cells compact count=16 C01=3.577V C02=3.576V C03=3.576V C04=3.576V C05=3.576V C06=3.576V C07=3.576V C08=3.576V C09=3.576V C10=3.576V C11=3.576V C12=3.576V C13=3.576V C14=3.576V C15=3.576V C16=3.576V min=3.576V#2 max=3.577V#1,
29,ok,request,0x01,0x03,0x1210,16,,true,761545851,761709045,3807729.255,3808545.225,815.970,246242.215,01 03 12 10 00 10 40 BB,JKBMS Modbus req slave=0x01 func=0x03 start=0x1210 count=16 crc=OK,read holding registers start=0x1210 count=16 poll-block,
30,ok,response,0x01,0x03,0x1210,16,32,true,762658232,763299623,3813291.160,3816498.115,3206.955,4745.935,01 03 20 0D F8 0D F8 0D F7 0D F8 0D F8 0D F8 0D F8 0D F8 00 00 00 00 00 00 00 00 00 00 00 00 00 00 00 00 BD 42,JKBMS Modbus rsp slave=0x01 func=0x03 regs=0x1210..0x121F bytes=32 crc=OK,response regs 0x1210..0x121F: cells compact count=8 C17=3.576V C18=3.576V C19=3.575V C20=3.576V C21=3.576V C22=3.576V C23=3.576V C24=3.576V min=3.575V#19 max=3.576V#17,
31,ok,request,0x01,0x03,0x1220,16,,true,812552804,812715998,4062764.020,4063579.990,815.970,246265.905,01 03 12 20 00 10 40 B4,JKBMS Modbus req slave=0x01 func=0x03 start=0x1220 count=16 crc=OK,read holding registers start=0x1220 count=16 poll-block,
32,ok,response,0x01,0x03,0x1220,16,32,true,813660448,814301835,4068302.240,4071509.175,3206.935,4722.250,01 03 20 00 00 00 00 00 00 00 00 00 00 00 00 00 00 00 00 00 00 00 00 00 00 00 00 00 00 00 00 00 00 00 00 92 7A,JKBMS Modbus rsp slave=0x01 func=0x03 regs=0x1220..0x122F bytes=32 crc=OK,response regs 0x1220..0x122F: regs 0x1220..0x122F,
33,ok,request,0x01,0x03,0x1230,16,,true,863502211,863665404,4317511.055,4318327.020,815.965,246001.880,01 03 12 30 00 10 41 71,JKBMS Modbus req slave=0x01 func=0x03 start=0x1230 count=16 crc=OK,read holding registers start=0x1230 count=16 poll-block,
34,ok,response,0x01,0x03,0x1230,16,32,true,864674793,865316182,4323373.965,4326580.910,3206.945,5046.945,01 03 20 00 00 00 00 00 00 00 00 00 00 00 00 00 00 00 00 00 00 FF FF 0D F8 00 02 00 03 00 45 00 42 00 45 7B 83,JKBMS Modbus rsp slave=0x01 func=0x03 regs=0x1230..0x123F bytes=32 crc=OK,response regs 0x1230..0x123F: cells stride2 count=1 C30=3.576V min=3.576V#30 max=3.576V#30,
35,ok,request,0x01,0x03,0x1240,32,,true,914549576,914712769,4572747.880,4573563.845,815.965,246166.970,01 03 12 40 00 20 40 BE,JKBMS Modbus req slave=0x01 func=0x03 start=0x1240 count=32 crc=OK,read holding registers start=0x1240 count=32 poll-block,
36,ok,response,0x01,0x03,0x1240,32,64,true,915664873,916860953,4578324.365,4584304.765,5980.400,4760.520,01 03 40 00 00 FF FF 0D F8 00 02 00 03 00 45 00 42 00 45 00 42 00 4A 00 47 00 50 00 4C 00 47 00 43 00 47 00 4C 00 56 00 5A 00 7D 00 66 00 00 00 00 00 00 00 00 00 00 00 00 00 00 00 00 00 00 00 00 00 00 10 41,JKBMS Modbus rsp slave=0x01 func=0x03 regs=0x1240..0x125F bytes=64 crc=OK,"response regs 0x1240..0x125F: cell_avg=raw0x0003, cell_diff=66mV, cell_idx raw=0x0042",
37,ok,request,0x01,0x03,0x1244,6,,true,966161189,966324382,4830805.945,4831621.910,815.965,246501.180,01 03 12 44 00 06 80 A5,JKBMS Modbus req slave=0x01 func=0x03 start=0x1244 count=6 crc=OK,read holding registers start=0x1244 count=6 poll-block,
38,ok,response,0x01,0x03,0x1244,6,12,true,967277248,967571956,4836386.240,4837859.780,1473.540,4764.330,01 03 0C 0D F8 00 02 00 03 00 45 00 42 00 45 D1 88,JKBMS Modbus rsp slave=0x01 func=0x03 regs=0x1244..0x1249 bytes=12 crc=OK,"response regs 0x1244..0x1249: cell_avg=3.576V, cell_diff=3mV, cell_idx raw=0x0042",
39,ok,request,0x01,0x03,0x128A,40,,true,1016721665,1016884858,5083608.325,5084424.290,815.965,245748.545,01 03 12 8A 00 28 61 46,JKBMS Modbus req slave=0x01 func=0x03 start=0x128A count=40 crc=OK,read holding registers start=0x128A count=40 poll-block,
40,ok,response,0x01,0x03,0x128A,40,80,true,1017868643,1019342071,5089343.215,5096710.355,7367.140,4918.925,01 03 50 01 25 00 00 00 00 00 00 DF 7F 00 00 00 00 00 00 00 00 01 32 01 2F 00 08 00 00 00 00 00 63 00 00 9A 34 00 00 9C 40 00 00 00 00 00 00 23 32 64 00 00 00 00 0E CB 08 01 01 00 00 00 00 00 00 00 00 00 00 00 00 00 00 FF 00 01 00 00 00 03 BD 00 00 31 2D,JKBMS Modbus rsp slave=0x01 func=0x03 regs=0x128A..0x12B1 bytes=80 crc=OK,"response regs 0x128A..0x12B1: pack_i=+0.099A, MOS=29.3C, alarm_candidate=0x23326400, full=65.28Ah, cycles=957",
41,ok,request,0x01,0x03,0x12B8,2,,true,1068528883,1068692076,5342644.415,5343460.380,815.965,245934.060,01 03 12 B8 00 02 41 56,JKBMS Modbus req slave=0x01 func=0x03 start=0x12B8 count=2 crc=OK,read holding registers start=0x12B8 count=2 poll-block,
42,ok,response,0x01,0x03,0x12B8,2,4,true,1069689029,1069845061,5348445.145,5349225.305,780.160,4984.765,01 03 04 64 00 00 00 E5 03,JKBMS Modbus rsp slave=0x01 func=0x03 regs=0x12B8..0x12B9 bytes=4 crc=OK,"response regs 0x12B8..0x12B9: SOC=100%, SOH=100% precharge=0x00",
43,ok,request,0x01,0x03,0x1200,16,,true,1118893284,1119056477,5594466.420,5595282.385,815.965,245241.115,01 03 12 00 00 10 41 7E,JKBMS Modbus req slave=0x01 func=0x03 start=0x1200 count=16 crc=OK,read holding registers start=0x1200 count=16 poll-block,
44,ok,response,0x01,0x03,0x1200,16,32,true,1120074146,1120715536,5600370.730,5603577.680,3206.950,5088.345,01 03 20 0D FA 0D F8 0D F8 0D F7 0D F8 0D F8 0D F8 0D F8 0D F8 0D F8 0D F7 0D F8 0D F8 0D F8 0D F8 0D F8 6B 55,JKBMS Modbus rsp slave=0x01 func=0x03 regs=0x1200..0x120F bytes=32 crc=OK,response regs 0x1200..0x120F: cells compact count=16 C01=3.578V C02=3.576V C03=3.576V C04=3.575V C05=3.576V C06=3.576V C07=3.576V C08=3.576V C09=3.576V C10=3.576V C11=3.575V C12=3.576V C13=3.576V C14=3.576V C15=3.576V C16=3.576V min=3.575V#4 max=3.578V#1,
45,ok,request,0x01,0x03,0x1210,16,,true,1169933235,1170096427,5849666.175,5850482.135,815.960,246088.495,01 03 12 10 00 10 40 BB,JKBMS Modbus req slave=0x01 func=0x03 start=0x1210 count=16 crc=OK,read holding registers start=0x1210 count=16 poll-block,
46,ok,response,0x01,0x03,0x1210,16,32,true,1171076360,1171717751,5855381.800,5858588.755,3206.955,4899.665,01 03 20 0D F8 0D F8 0D F7 0D F8 0D F8 0D F8 0D F8 0D F8 00 00 00 00 00 00 00 00 00 00 00 00 00 00 00 00 BD 42,JKBMS Modbus rsp slave=0x01 func=0x03 regs=0x1210..0x121F bytes=32 crc=OK,response regs 0x1210..0x121F: cells compact count=8 C17=3.576V C18=3.576V C19=3.575V C20=3.576V C21=3.576V C22=3.576V C23=3.576V C24=3.576V min=3.575V#19 max=3.576V#17,
47,ok,request,0x01,0x03,0x1220,16,,true,1220929084,1221092278,6104645.420,6105461.390,815.970,246056.665,01 03 12 20 00 10 40 B4,JKBMS Modbus req slave=0x01 func=0x03 start=0x1220 count=16 crc=OK,read holding registers start=0x1220 count=16 poll-block,
48,ok,response,0x01,0x03,0x1220,16,32,true,1222095907,1222737297,6110479.535,6113686.485,3206.950,5018.145,01 03 20 00 00 00 00 00 00 00 00 00 00 00 00 00 00 00 00 00 00 00 00 00 00 00 00 00 00 00 00 00 00 00 00 92 7A,JKBMS Modbus rsp slave=0x01 func=0x03 regs=0x1220..0x122F bytes=32 crc=OK,response regs 0x1220..0x122F: regs 0x1220..0x122F,
49,ok,request,0x01,0x03,0x1230,16,,true,1271959003,1272122195,6359795.015,6360610.975,815.960,246108.530,01 03 12 30 00 10 41 71,JKBMS Modbus req slave=0x01 func=0x03 start=0x1230 count=16 crc=OK,read holding registers start=0x1230 count=16 poll-block,
50,ok,response,0x01,0x03,0x1230,16,32,true,1273080784,1273722176,6365403.920,6368610.880,3206.960,4792.945,01 03 20 00 00 00 00 00 00 00 00 00 00 00 00 00 00 00 00 00 00 FF FF 0D F8 00 03 00 03 00 45 00 42 00 45 76 13,JKBMS Modbus rsp slave=0x01 func=0x03 regs=0x1230..0x123F bytes=32 crc=OK,response regs 0x1230..0x123F: cells stride2 count=1 C30=3.576V min=3.576V#30 max=3.576V#30,
51,ok,request,0x01,0x03,0x1240,32,,true,1322903043,1323066236,6614515.215,6615331.180,815.965,245904.335,01 03 12 40 00 20 40 BE,JKBMS Modbus req slave=0x01 func=0x03 start=0x1240 count=32 crc=OK,read holding registers start=0x1240 count=32 poll-block,
52,ok,response,0x01,0x03,0x1240,32,64,true,1324171405,1325367486,6620857.025,6626837.430,5980.405,5525.845,01 03 40 00 00 FF FF 0D F8 00 03 00 03 00 45 00 42 00 45 00 42 00 4A 00 47 00 50 00 4C 00 47 00 43 00 47 00 4C 00 56 00 5A 00 7D 00 66 00 00 00 00 00 00 00 00 00 00 00 00 00 00 00 00 00 00 00 00 00 00 2F 02,JKBMS Modbus rsp slave=0x01 func=0x03 regs=0x1240..0x125F bytes=64 crc=OK,"response regs 0x1240..0x125F: cell_avg=raw0x0003, cell_diff=66mV, cell_idx raw=0x0042",
53,ok,request,0x01,0x03,0x1244,6,,true,1374505273,1374668467,6872526.365,6873342.335,815.970,245688.935,01 03 12 44 00 06 80 A5,JKBMS Modbus req slave=0x01 func=0x03 start=0x1244 count=6 crc=OK,read holding registers start=0x1244 count=6 poll-block,
54,ok,response,0x01,0x03,0x1244,6,12,true,1375684976,1375979683,6878424.880,6879898.415,1473.535,5082.545,01 03 0C 0D F8 00 03 00 03 00 45 00 42 00 45 DC 18,JKBMS Modbus rsp slave=0x01 func=0x03 regs=0x1244..0x1249 bytes=12 crc=OK,"response regs 0x1244..0x1249: cell_avg=3.576V, cell_diff=3mV, cell_idx raw=0x0042",
55,ok,request,0x01,0x03,0x128A,40,,true,1425114408,1425277600,7125572.040,7126388.000,815.960,245673.625,01 03 12 8A 00 28 61 46,JKBMS Modbus req slave=0x01 func=0x03 start=0x128A count=40 crc=OK,read holding registers start=0x128A count=40 poll-block,
56,ok,response,0x01,0x03,0x128A,40,80,true,1426288506,1427761933,7131442.530,7138809.665,7367.135,5054.530,01 03 50 01 25 00 00 00 00 00 00 DF 7D 00 00 00 00 00 00 00 00 01 32 01 2F 00 08 00 00 00 00 00 63 00 00 9A 34 00 00 9C 40 00 00 00 00 00 00 23 32 64 00 00 00 00 0E CB 0A 01 01 00 00 00 00 00 00 00 00 00 00 00 00 00 00 FF 00 01 00 00 00 03 BD 00 00 46 11,JKBMS Modbus rsp slave=0x01 func=0x03 regs=0x128A..0x12B1 bytes=80 crc=OK,"response regs 0x128A..0x12B1: pack_i=+0.099A, MOS=29.3C, alarm_candidate=0x23326400, full=65.28Ah, cycles=957",
57,ok,request,0x01,0x03,0x12B8,2,,true,1476940617,1477103810,7384703.085,7385519.050,815.965,245893.420,01 03 12 B8 00 02 41 56,JKBMS Modbus req slave=0x01 func=0x03 start=0x12B8 count=2 crc=OK,read holding registers start=0x12B8 count=2 poll-block,
58,ok,response,0x01,0x03,0x12B8,2,4,true,1478089821,1478245855,7390449.105,7391229.275,780.170,4930.055,01 03 04 64 00 00 00 E5 03,JKBMS Modbus rsp slave=0x01 func=0x03 regs=0x12B8..0x12B9 bytes=4 crc=OK,"response regs 0x12B8..0x12B9: SOC=100%, SOH=100% precharge=0x00",
59,ok,request,0x01,0x03,0x1200,16,,true,1527338808,1527502001,7636694.040,7637510.005,815.965,245464.765,01 03 12 00 00 10 41 7E,JKBMS Modbus req slave=0x01 func=0x03 start=0x1200 count=16 crc=OK,read holding registers start=0x1200 count=16 poll-block,
60,ok,response,0x01,0x03,0x1200,16,32,true,1528494008,1529135397,7642470.040,7645676.985,3206.945,4960.035,01 03 20 0D F9 0D F8 0D F8 0D F8 0D F8 0D F8 0D F8 0D F8 0D F8 0D F8 0D F8 0D F8 0D F8 0D F8 0D F8 0D F9 2A A4,JKBMS Modbus rsp slave=0x01 func=0x03 regs=0x1200..0x120F bytes=32 crc=OK,response regs 0x1200..0x120F: cells compact count=16 C01=3.577V C02=3.576V C03=3.576V C04=3.576V C05=3.576V C06=3.576V C07=3.576V C08=3.576V C09=3.576V C10=3.576V C11=3.576V C12=3.576V C13=3.576V C14=3.576V C15=3.576V C16=3.577V min=3.576V#2 max=3.577V#1,
61,ok,request,0x01,0x03,0x1210,16,,true,1578337985,1578501177,7891689.925,7892505.885,815.960,246012.940,01 03 12 10 00 10 40 BB,JKBMS Modbus req slave=0x01 func=0x03 start=0x1210 count=16 crc=OK,read holding registers start=0x1210 count=16 poll-block,
62,ok,response,0x01,0x03,0x1210,16,32,true,1579494486,1580135877,7897472.430,7900679.385,3206.955,4966.545,01 03 20 0D F8 0D F8 0D F8 0D F8 0D F8 0D F8 0D F7 0D F8 00 00 00 00 00 00 00 00 00 00 00 00 00 00 00 00 EA 4C,JKBMS Modbus rsp slave=0x01 func=0x03 regs=0x1210..0x121F bytes=32 crc=OK,response regs 0x1210..0x121F: cells compact count=8 C17=3.576V C18=3.576V C19=3.576V C20=3.576V C21=3.576V C22=3.576V C23=3.575V C24=3.576V min=3.575V#23 max=3.576V#17,
63,ok,request,0x01,0x03,0x1220,16,,true,1629361457,1629524650,8146807.285,8147623.250,815.965,246127.900,01 03 12 20 00 10 40 B4,JKBMS Modbus req slave=0x01 func=0x03 start=0x1220 count=16 crc=OK,read holding registers start=0x1220 count=16 poll-block,
64,ok,response,0x01,0x03,0x1220,16,32,true,1630519236,1631160626,8152596.180,8155803.130,3206.950,4972.930,01 03 20 00 00 00 00 00 00 00 00 00 00 00 00 00 00 00 00 00 00 00 00 00 00 00 00 00 00 00 00 00 00 00 00 92 7A,JKBMS Modbus rsp slave=0x01 func=0x03 regs=0x1220..0x122F bytes=32 crc=OK,response regs 0x1220..0x122F: regs 0x1220..0x122F,
65,ok,request,0x01,0x03,0x1230,16,,true,1680349496,1680512688,8401747.480,8402563.440,815.960,245944.350,01 03 12 30 00 10 41 71,JKBMS Modbus req slave=0x01 func=0x03 start=0x1230 count=16 crc=OK,read holding registers start=0x1230 count=16 poll-block,
66,ok,response,0x01,0x03,0x1230,16,32,true,1681500649,1682142038,8407503.245,8410710.190,3206.945,4939.805,01 03 20 00 00 00 00 00 00 00 00 00 00 00 00 00 00 00 00 00 00 FF FF 0D F8 00 03 00 03 00 45 00 42 00 45 76 13,JKBMS Modbus rsp slave=0x01 func=0x03 regs=0x1230..0x123F bytes=32 crc=OK,response regs 0x1230..0x123F: cells stride2 count=1 C30=3.576V min=3.576V#30 max=3.576V#30,
67,ok,request,0x01,0x03,0x1240,32,,true,1731542081,1731705274,8657710.405,8658526.370,815.965,247000.215,01 03 12 40 00 20 40 BE,JKBMS Modbus req slave=0x01 func=0x03 start=0x1240 count=32 crc=OK,read holding registers start=0x1240 count=32 poll-block,
68,ok,response,0x01,0x03,0x1240,32,64,true,1732710871,1733906953,8663554.355,8669534.765,5980.410,5027.985,01 03 40 00 00 FF FF 0D F8 00 03 00 03 00 45 00 42 00 45 00 42 00 4A 00 47 00 50 00 4C 00 47 00 43 00 47 00 4C 00 56 00 5A 00 7D 00 66 00 00 00 00 00 00 00 00 00 00 00 00 00 00 00 00 00 00 00 00 00 00 2F 02,JKBMS Modbus rsp slave=0x01 func=0x03 regs=0x1240..0x125F bytes=64 crc=OK,"response regs 0x1240..0x125F: cell_avg=raw0x0003, cell_diff=66mV, cell_idx raw=0x0042",
69,ok,request,0x01,0x03,0x1244,6,,true,1782943212,1783106405,8914716.060,8915532.025,815.965,245181.295,01 03 12 44 00 06 80 A5,JKBMS Modbus req slave=0x01 func=0x03 start=0x1244 count=6 crc=OK,read holding registers start=0x1244 count=6 poll-block,
70,ok,response,0x01,0x03,0x1244,6,12,true,1784104837,1784399543,8920524.185,8921997.715,1473.530,4992.160,01 03 0C 0D F8 00 03 00 03 00 45 00 42 00 45 DC 18,JKBMS Modbus rsp slave=0x01 func=0x03 regs=0x1244..0x1249 bytes=12 crc=OK,"response regs 0x1244..0x1249: cell_avg=3.576V, cell_diff=3mV, cell_idx raw=0x0042",
71,ok,request,0x01,0x03,0x128A,40,,true,1833526223,1833689416,9167631.115,9168447.080,815.965,245633.400,01 03 12 8A 00 28 61 46,JKBMS Modbus req slave=0x01 func=0x03 start=0x128A count=40 crc=OK,read holding registers start=0x128A count=40 poll-block,
72,ok,response,0x01,0x03,0x128A,40,80,true,1834706632,1836180060,9173533.160,9180900.300,7367.140,5086.080,01 03 50 01 25 00 00 00 00 00 00 DF 7C 00 00 00 00 00 00 00 00 01 31 01 2E 00 08 00 00 00 00 00 63 00 00 9A 34 00 00 9C 40 00 00 00 00 00 00 23 32 64 00 00 00 00 0E CB 0C 01 01 00 00 00 00 00 00 00 00 00 00 00 00 00 00 FF 00 01 00 00 00 03 BD 00 00 D7 E3,JKBMS Modbus rsp slave=0x01 func=0x03 regs=0x128A..0x12B1 bytes=80 crc=OK,"response regs 0x128A..0x12B1: pack_i=+0.099A, MOS=29.3C, alarm_candidate=0x23326400, full=65.28Ah, cycles=957",
73,ok,request,0x01,0x03,0x12B8,2,,true,1885344060,1885507254,9426720.300,9427536.270,815.970,245820.000,01 03 12 B8 00 02 41 56,JKBMS Modbus req slave=0x01 func=0x03 start=0x12B8 count=2 crc=OK,read holding registers start=0x12B8 count=2 poll-block,
74,ok,response,0x01,0x03,0x12B8,2,4,true,1886509682,1886665716,9432548.410,9433328.580,780.170,5012.140,01 03 04 64 00 00 00 E5 03,JKBMS Modbus rsp slave=0x01 func=0x03 regs=0x12B8..0x12B9 bytes=4 crc=OK,"response regs 0x12B8..0x12B9: SOC=100%, SOH=100% precharge=0x00",
75,ok,request,0x01,0x03,0x1200,16,,true,1935725770,1935888962,9678628.850,9679444.810,815.960,245300.270,01 03 12 00 00 10 41 7E,JKBMS Modbus req slave=0x01 func=0x03 start=0x1200 count=16 crc=OK,read holding registers start=0x1200 count=16 poll-block,
76,ok,response,0x01,0x03,0x1200,16,32,true,1936912136,1937553525,9684560.680,9687767.625,3206.945,5115.870,01 03 20 0D F9 0D F8 0D F8 0D F8 0D F8 0D F8 0D F8 0D F8 0D F8 0D F8 0D F7 0D F8 0D F8 0D F8 0D F8 0D F8 DB 70,JKBMS Modbus rsp slave=0x01 func=0x03 regs=0x1200..0x120F bytes=32 crc=OK,response regs 0x1200..0x120F: cells compact count=16 C01=3.577V C02=3.576V C03=3.576V C04=3.576V C05=3.576V C06=3.576V C07=3.576V C08=3.576V C09=3.576V C10=3.576V C11=3.575V C12=3.576V C13=3.576V C14=3.576V C15=3.576V C16=3.576V min=3.575V#11 max=3.577V#1,
77,ok,request,0x01,0x03,0x1210,16,,true,1986737608,1986900800,9933688.040,9934504.000,815.960,245920.415,01 03 12 10 00 10 40 BB,JKBMS Modbus req slave=0x01 func=0x03 start=0x1210 count=16 crc=OK,read holding registers start=0x1210 count=16 poll-block,
78,ok,response,0x01,0x03,0x1210,16,32,true,1987931682,1988573072,9939658.410,9942865.360,3206.950,5154.410,01 03 20 0D F8 0D F8 0D F7 0D F8 0D F8 0D F8 0D F8 0D F8 00 00 00 00 00 00 00 00 00 00 00 00 00 00 00 00 BD 42,JKBMS Modbus rsp slave=0x01 func=0x03 regs=0x1210..0x121F bytes=32 crc=OK,response regs 0x1210..0x121F: cells compact count=8 C17=3.576V C18=3.576V C19=3.575V C20=3.576V C21=3.576V C22=3.576V C23=3.576V C24=3.576V min=3.575V#19 max=3.576V#17,
